CITIFILE A.01.01
# File generated on Mon Jul 14 16:06:02 2025

NAME Resources File

VAR Index MAG 17

DATA DeltaTime RI
DATA DeltaMemory RI
DATA Time RI
DATA Memory RI

VAR_LIST_BEGIN
  0
  1
  2
  3
  4
  5
  6
  7
  8
  9
  10
  11
  12
  13
  14
  15
  16
VAR_LIST_END

# DeltaTime [s]
BEGIN
  0.0045664, 0.0
  0.0400796, 0.0
  0.0020868, 0.0
  7.109999999999999e-05, 0.0
  0.0038874, 0.0
  0.0128617, 0.0
  0.0009976, 0.0
  0.0012319, 0.0
  0.0187788, 0.0
  0.1747494, 0.0
  0.0332269, 0.0
  0.1857797, 0.0
  0.0003108, 0.0
  9.289999999999999e-05, 0.0
  0.0164633, 0.0
  0.040878, 0.0
  0.002833, 0.0
END

# DeltaMemory [MB]
BEGIN
  0.421875, 0.0
  12.1796875, 0.0
  0, 0.0
  0, 0.0
  0, 0.0
  3.359375, 0.0
  0.125, 0.0
  0.35546875, 0.0
  2.75, 0.0
  11.1015625, 0.0
  0.015625, 0.0
  0, 0.0
  0, 0.0
  0, 0.0
  0, 0.0
  3.0546875, 0.0
  0, 0.0
END

# Time [s]
BEGIN
  0.0045664, 0.0
  0.044646, 0.0
  0.0467328, 0.0
  0.0468039, 0.0
  0.05069129999999999, 0.0
  0.063553, 0.0
  0.0645506, 0.0
  0.06578249999999999, 0.0
  0.08456129999999999, 0.0
  0.2593107, 0.0
  0.2925376, 0.0
  0.4783173, 0.0
  0.4786281, 0.0
  0.478721, 0.0
  0.4951843, 0.0
  0.5360623, 0.0
  0.5388953, 0.0
END

# Memory [MB]
BEGIN
  0.421875, 0.0
  12.6015625, 0.0
  12.6015625, 0.0
  12.6015625, 0.0
  12.6015625, 0.0
  15.9609375, 0.0
  16.0859375, 0.0
  16.44140625, 0.0
  19.19140625, 0.0
  30.29296875, 0.0
  30.30859375, 0.0
  30.30859375, 0.0
  30.30859375, 0.0
  30.30859375, 0.0
  30.30859375, 0.0
  33.36328125, 0.0
  33.36328125, 0.0
END

# DeltaTag
# Index[0] Creating the options
# Index[1] Creating the layout
# Index[2] Creating the stimulus
# Index[3] Extracting the connectivity
# Index[4] Extracting the substrate
# Index[5] Creating electric network
# Index[6] Loading the electric network
# Index[7] Creating the electric matrix
# Index[8] Loading the electric matrix
# Index[9] Solving the electric matrix
# Index[10] Storing the voltage data
# Index[11] Output electric data to file
# Index[12] Loading the electric network
# Index[13] Creating the electric matrix
# Index[14] Loading the electric matrix
# Index[15] Solving the electric matrix
# Index[16] Output electric model to file

